 ****** HSPICE -- H-2013.03-SP2 32-BIT (Aug 26 2013) RHEL32 ******              
  Copyright (C) 2013 Synopsys, Inc. All Rights Reserved.                        
  Unpublished-rights reserved under US copyright laws.
  This program is protected by law and is subject to the
  terms and conditions of the license agreement from Synopsys.
  Use of this program is your acceptance to be bound by the
  license agreement. HSPICE is the trademark of Synopsys, Inc.
  Input File: iv_rbl.sp                                                         
  Command line options: iv_rbl.sp -o iv_rbl.lis
 lic:  
 lic: FLEXlm: v10.9.8 
 lic: USER:   109521018            HOSTNAME: cad.server 
 lic: HOSTID: 0025b3c97655         PID:      10226 
 lic: Using FLEXlm license file: 
 lic: 26585@lscic 
 lic: Checkout 1 hspice 
 lic: License/Maintenance for hspice will expire on 14-may-2022/2020.03 
 lic: 135(in_use)/250(total) FLOATING license(s) on SERVER 26585@lscic 
 lic:   
 Init: read install configuration file: /usr/cad/synopsys/hspice/cur/hspice/meta.cfg
1****** HSPICE -- H-2013.03-SP2 32-BIT (Aug 26 2013) RHEL32 ******              
 ******  
 .tspc

  ******  circuit name directory
 circuit number to circuit name directory
   number circuitname                     definition         multiplier
        0 main circuit
        1 xskew_or0.                      skew_or            1.00 
        2 xskew_or1.                      skew_or            1.00 
        3 xskew_or2.                      skew_or            1.00 
        4 xskew_or3.                      skew_or            1.00 
        5 xskew_and0.                     skew_and           1.00 
        6 xskew_and1.                     skew_and           1.00 
        7 xskew_and2.                     skew_and           1.00 
        8 xskew_and3.                     skew_and           1.00 
        9 xnor0.                          nor2               1.00 
       10 xnor1.                          nor2               1.00 
       11 xnor2.                          nor2               1.00 
       12 xnor3.                          nor2               1.00 
       13 xlat_out0.                      latch_senp         1.00 
       14 xlat_and0.                      latch_senp         1.00 
       15 xlat_or0.                       latch_senp         1.00 
       16 xlat_out1.                      latch_senp         1.00 
       17 xlat_and1.                      latch_senp         1.00 
       18 xlat_or1.                       latch_senp         1.00 
       19 xlat_out2.                      latch_senp         1.00 
       20 xlat_and2.                      latch_senp         1.00 
       21 xlat_or2.                       latch_senp         1.00 
       22 xlat_out3.                      latch_senp         1.00 
       23 xlat_and3.                      latch_senp         1.00 
       24 xlat_or3.                       latch_senp         1.00 
       25 xlat_out0.xmux.                 mux                1.00 
       26 xlat_out0.xbuf0.                buf0               1.00 
       27 xlat_and0.xmux.                 mux                1.00 
       28 xlat_and0.xbuf0.                buf0               1.00 
       29 xlat_or0.xmux.                  mux                1.00 
       30 xlat_or0.xbuf0.                 buf0               1.00 
       31 xlat_out1.xmux.                 mux                1.00 
       32 xlat_out1.xbuf0.                buf0               1.00 
       33 xlat_and1.xmux.                 mux                1.00 
       34 xlat_and1.xbuf0.                buf0               1.00 
       35 xlat_or1.xmux.                  mux                1.00 
       36 xlat_or1.xbuf0.                 buf0               1.00 
       37 xlat_out2.xmux.                 mux                1.00 
       38 xlat_out2.xbuf0.                buf0               1.00 
       39 xlat_and2.xmux.                 mux                1.00 
       40 xlat_and2.xbuf0.                buf0               1.00 
       41 xlat_or2.xmux.                  mux                1.00 
       42 xlat_or2.xbuf0.                 buf0               1.00 
       43 xlat_out3.xmux.                 mux                1.00 
       44 xlat_out3.xbuf0.                buf0               1.00 
       45 xlat_and3.xmux.                 mux                1.00 
       46 xlat_and3.xbuf0.                buf0               1.00 
       47 xlat_or3.xmux.                  mux                1.00 
       48 xlat_or3.xbuf0.                 buf0               1.00 
  **warning** (iv_rbl.sp:98) value of resistance 0:r1 defined less than rm_rmin (1.000000e-05) is shorted in circuit.
  
 **warning**  No DC path to ground from node        0:pre              defined in subckt 0               ; Connected by HSPICE with gdcpath


      
 **info** set option symb=1 internally to help for convergence.
 *****************************************************************
 ******  option summary
 ******
 runlvl  = 3         bypass  = 2         
  Opening plot unit= 15
 file=iv_rbl.pa0

 ******  
 .tspc

  ******  dc transfer curves tnom=  25.000 temp=  25.000 *****
x

        volt    current    
                   vpos    
  100.00000m     -2.4267u  
  150.00000m    657.0551u  
  200.00000m      1.2448m  
  250.00000m      1.7610m  
  300.00000m      2.2060m  
  350.00000m      2.5804m  
  400.00000m      2.8853m  
  450.00000m      3.1225m  
  500.00000m      3.2956m  
  550.00000m      3.4130m  
  600.00000m      3.4908m  
  650.00000m      3.5458m  
  700.00000m      3.5881m  
  750.00000m      3.6226m  
  800.00000m      3.6518m  
  850.00000m      3.6771m  
  900.00000m      3.6994m  
  950.00000m      3.7194m  
    1.00000       3.7374m  
y
1****** HSPICE -- H-2013.03-SP2 32-BIT (Aug 26 2013) RHEL32 ******              
 ******  
 .tspc

  ******  operating point information tnom=  25.000 temp=  25.000 *****
 ***** operating point status is all       simulation time is     0.     
     node    =voltage       node    =voltage       node    =voltage

 + 0:bl_and0 = 999.7267m  0:bl_and1 = 999.7267m  0:bl_and2 = 999.7267m
 + 0:bl_and3 = 999.7267m  0:bl_nand0=   8.4205u  0:bl_nand1=   8.4205u
 + 0:bl_nand2=   8.4205u  0:bl_nand3=   8.4205u  0:bl_nor0 =   1.4175u
 + 0:bl_nor1 =   1.4175u  0:bl_nor2 =   1.4175u  0:bl_nor3 =   1.4175u
 + 0:bl_or0  = 999.8934m  0:bl_or1  = 999.8934m  0:bl_or2  = 999.8934m
 + 0:bl_or3  = 999.8934m  0:bl_xor0 =   2.7570u  0:bl_xor1 =   2.7570u
 + 0:bl_xor2 =   2.7570u  0:bl_xor3 =   2.7570u  0:lat_and0= 999.9772m
 + 0:lat_and1= 999.9772m  0:lat_and2= 999.9772m  0:lat_and3= 999.9772m
 + 0:lat_or0 = 999.9877m  0:lat_or1 = 999.9877m  0:lat_or2 = 999.9877m
 + 0:lat_or3 = 999.9877m  0:lat_out0= 528.1920m  0:lat_out1= 528.1920m
 + 0:lat_out2= 528.1920m  0:lat_out3= 528.1920m  0:pre     = 515.2728m
 + 0:q0      =   1.0000   0:q1      =   1.0000   0:q2      =   1.0000 
 + 0:q3      =   1.0000   0:rbl0    = 100.0000m  0:rbl0_   = 486.4797m
 + 0:rbl1    = 100.0000m  0:rbl1_   = 486.4797m  0:rbl2    = 100.0000m
 + 0:rbl2_   = 486.4797m  0:rbl3    = 100.0000m  0:rbl3_   = 486.4797m
 + 0:rd0     = 224.4295m  0:rd1     = 223.7353m  0:rd2     = 223.2322m
 + 0:rd3     = 224.0066m  0:rwl     =   1.0000   0:st_on00 =   1.0000 
 + 0:st_on01 =   0.       0:st_on10 =   1.0000   0:st_on11 =   0.     
 + 0:st_on20 =   1.0000   0:st_on21 =   0.       0:st_on30 =   1.0000 
 + 0:st_on31 =   0.       0:tri_out = 100.0000m  0:vdd     =   1.0000 
 + 0:vin     = 400.0000m  0:vss     =   0.       9:iu      = 164.6549m
 +10:iu      = 164.6549m 11:iu      = 164.6549m 12:iu      = 164.6549m
 +13:ln      = 486.4807m 14:ln      = 999.7818m 15:ln      = 999.9121m
 +16:ln      = 486.4807m 17:ln      = 999.7818m 18:ln      = 999.9121m
 +19:ln      = 486.4807m 20:ln      = 999.7818m 21:ln      = 999.9121m
 +22:ln      = 486.4807m 23:ln      = 999.7818m 24:ln      = 999.9121m
 +25:ln      =  99.9220m 26:i_0     = 502.0397m 27:ln      =  99.9242m
 +28:i_0     =   7.7207u 29:ln      =  99.9242m 30:i_0     =   7.7022u
 +31:ln      =  99.9220m 32:i_0     = 502.0397m 33:ln      =  99.9242m
 +34:i_0     =   7.7207u 35:ln      =  99.9242m 36:i_0     =   7.7022u
 +37:ln      =  99.9220m 38:i_0     = 502.0397m 39:ln      =  99.9242m
 +40:i_0     =   7.7207u 41:ln      =  99.9242m 42:i_0     =   7.7022u
 +43:ln      =  99.9220m 44:i_0     = 502.0397m 45:ln      =  99.9242m
 +46:i_0     =   7.7207u 47:ln      =  99.9242m 48:i_0     =   7.7022u


 **** voltage sources

 subckt                                                              
 element   0:vdd       0:vin       0:vpos      0:vq0       0:vq1     
  volts       1.0000    400.0000m   100.0000m     1.0000      1.0000 
  current  -290.8915u    -2.8877m     2.8853m   -11.4425n    -5.5309n
  power     290.8915u     1.1551m  -288.5294u    11.4425n     5.5309n

 subckt                                                              
 element   0:vq2       0:vq3       0:vrwl      0:vss       0:vst_on00
  volts       1.0000      1.0000      1.0000      0.          1.0000 
  current    -2.7756n    -1.4191n   -41.8374n   290.8939u    -1.0760n
  power       2.7756n     1.4191n    41.8374n     0.          1.0760n

 subckt                                                              
 element   0:vst_on01  0:vst_on10  0:vst_on11  0:vst_on20  0:vst_on21
  volts       0.          1.0000      0.          1.0000      0.     
  current   208.2961f  -449.6632p   208.2961f  -232.6335p   208.2961f
  power       0.        449.6632p     0.        232.6335p     0.     

 subckt                          
 element   0:vst_on30  0:vst_on31
  volts       1.0000      0.     
  current  -605.1253p   208.2961f
  power     605.1253p     0.     

     total voltage source power dissipation=    1.1575m       watts




 **** mosfets


 subckt                                                              
 element   0:mn01      0:mn02      0:mn11      0:mn12      0:mn21    
 model     0:nch.10    0:nch.10    0:nch.10    0:nch.10    0:nch.10  
 region        Linear      Linear      Linear      Linear      Linear
  id       -394.1850u  -394.1808u  -394.1850u  -394.1808u  -394.1850u
  ibs      -224.4563f  -400.0267f  -224.4563f  -400.0267f  -224.4563f
  ibd      -100.0261f  -224.4563f  -100.0261f  -224.4563f  -100.0261f
  vgs       775.5705m   600.0000m   775.5705m   600.0000m   775.5705m
  vds      -124.4295m  -175.5705m  -124.4295m  -175.5705m  -124.4295m
  vbs      -224.4295m  -400.0000m  -224.4295m  -400.0000m  -224.4295m
  vth       325.2849m   342.8257m   325.2849m   342.8257m   325.2849m
  vdsat     384.3878m   309.2416m   384.3878m   309.2416m   384.3878m
  vod       450.2856m   257.1743m   450.2856m   257.1743m   450.2856m
  beta        8.6277m     9.1193m     8.6277m     9.1193m     8.6277m
  gam eff   323.8919m   323.8919m   323.8919m   323.8919m   323.8919m
  gm        524.1457u   909.8697u   524.1457u   909.8697u   524.1457u
  gds         2.5787m     1.4545m     2.5787m     1.4545m     2.5787m
  gmb       100.7644u   142.0441u   100.7644u   142.0441u   100.7644u
  cdtot       8.3083f     7.2769f     8.3083f     7.2769f     8.3083f
  cgtot       7.4447f     7.0127f     7.4447f     7.0127f     7.4447f
  cstot       8.7397f     4.8407f     8.7397f     4.8407f     8.7397f
  cbtot       3.8853f     3.6164f     3.8853f     3.6164f     3.8853f
  cgs         2.7057f     1.5908f     2.7057f     1.5908f     2.7057f
  cgd         4.7355f     5.3628f     4.7355f     5.3628f     4.7355f



 subckt                                                              
 element   0:mn22      0:mn31      0:mn32      0:mn03      0:mn04    
 model     0:nch.10    0:nch.10    0:nch.10    0:nch.10    0:nch.10  
 region        Linear      Linear      Linear      Linear      Linear
  id       -394.1808u  -394.1850u  -394.1808u  -191.4824u  -191.4804u
  ibs      -400.0267f  -224.4563f  -400.0267f  -223.7487f  -400.0135f
  ibd      -224.4563f  -100.0261f  -224.4563f  -100.0132f  -223.7487f
  vgs       600.0000m   775.5705m   600.0000m   776.2647m   600.0000m
  vds      -175.5705m  -124.4295m  -175.5705m  -123.7353m  -176.2647m
  vbs      -400.0000m  -224.4295m  -400.0000m  -223.7353m  -400.0000m
  vth       342.8257m   325.2849m   342.8257m   327.7046m   345.1038m
  vdsat     309.2416m   384.3878m   309.2416m   387.2631m   313.6773m
  vod       257.1743m   450.2856m   257.1743m   448.5601m   254.8962m
  beta        9.1193m     8.6277m     9.1193m     4.1916m     4.3792m
  gam eff   323.8919m   323.8919m   323.8919m   324.9930m   324.9930m
  gm        909.8697u   524.1457u   909.8697u   267.1069u   454.7405u
  gds         1.4545m     2.5787m     1.4545m     1.2634m   707.2114u
  gmb       142.0441u   100.7644u   142.0441u    50.8462u    71.1617u
  cdtot       7.2769f     8.3083f     7.2769f     4.1634f     3.6588f
  cgtot       7.0127f     7.4447f     7.0127f     3.7382f     3.5181f
  cstot       4.8407f     8.7397f     4.8407f     4.3776f     2.4579f
  cbtot       3.6164f     3.8853f     3.6164f     1.9716f     1.8352f
  cgs         1.5908f     2.7057f     1.5908f     1.3783f   814.4408a
  cgd         5.3628f     4.7355f     5.3628f     2.3564f     2.6712f



 subckt                                                              
 element   0:mn13      0:mn14      0:mn23      0:mn24      0:mn33    
 model     0:nch.10    0:nch.10    0:nch.10    0:nch.10    0:nch.10  
 region        Linear      Linear      Linear      Linear      Linear
  id       -191.4824u  -191.4804u  -191.4824u  -191.4804u  -191.4824u
  ibs      -223.7487f  -400.0135f  -223.7487f  -400.0135f  -223.7487f
  ibd      -100.0132f  -223.7487f  -100.0132f  -223.7487f  -100.0132f
  vgs       776.2647m   600.0000m   776.2647m   600.0000m   776.2647m
  vds      -123.7353m  -176.2647m  -123.7353m  -176.2647m  -123.7353m
  vbs      -223.7353m  -400.0000m  -223.7353m  -400.0000m  -223.7353m
  vth       327.7046m   345.1038m   327.7046m   345.1038m   327.7046m
  vdsat     387.2631m   313.6773m   387.2631m   313.6773m   387.2631m
  vod       448.5601m   254.8962m   448.5601m   254.8962m   448.5601m
  beta        4.1916m     4.3792m     4.1916m     4.3792m     4.1916m
  gam eff   324.9930m   324.9930m   324.9930m   324.9930m   324.9930m
  gm        267.1069u   454.7405u   267.1069u   454.7405u   267.1069u
  gds         1.2634m   707.2114u     1.2634m   707.2114u     1.2634m
  gmb        50.8462u    71.1617u    50.8462u    71.1617u    50.8462u
  cdtot       4.1634f     3.6588f     4.1634f     3.6588f     4.1634f
  cgtot       3.7382f     3.5181f     3.7382f     3.5181f     3.7382f
  cstot       4.3776f     2.4579f     4.3776f     2.4579f     4.3776f
  cbtot       1.9716f     1.8352f     1.9716f     1.8352f     1.9716f
  cgs         1.3783f   814.4408a     1.3783f   814.4408a     1.3783f
  cgd         2.3564f     2.6712f     2.3564f     2.6712f     2.3564f



 subckt                                                              
 element   0:mn34      0:mn05      0:mn06      0:mn15      0:mn16    
 model     0:nch.10    0:nch.15    0:nch.15    0:nch.15    0:nch.15  
 region        Linear      Linear      Linear      Linear      Linear
  id       -191.4804u   -91.1146u   -91.1136u   -91.1146u   -91.1136u
  ibs      -400.0135f  -223.2391f  -400.0069f  -223.2391f  -400.0069f
  ibd      -223.7487f  -100.0067f  -223.2391f  -100.0067f  -223.2391f
  vgs       600.0000m   776.7678m   600.0000m   776.7678m   600.0000m
  vds      -176.2647m  -123.2322m  -176.7678m  -123.2322m  -176.7678m
  vbs      -400.0000m  -223.2322m  -400.0000m  -223.2322m  -400.0000m
  vth       345.1038m   326.6534m   343.7528m   326.6534m   343.7528m
  vdsat     313.6773m   393.9833m   321.6159m   393.9833m   321.6159m
  vod       254.8962m   450.1144m   256.2472m   450.1144m   256.2472m
  beta        4.3792m     1.9657m     2.0290m     1.9657m     2.0290m
  gam eff   324.9930m   325.8750m   325.8750m   325.8750m   325.8750m
  gm        454.7405u   134.5567u   222.4593u   134.5567u   222.4593u
  gds       707.2114u   606.0089u   339.0154u   606.0089u   339.0154u
  gmb        71.1617u    23.1820u    32.6547u    23.1820u    32.6547u
  cdtot       3.6588f     2.0958f     1.8503f     2.0958f     1.8503f
  cgtot       3.5181f     1.8847f     1.7737f     1.8847f     1.7737f
  cstot       2.4579f     2.2078f     1.2709f     2.2078f     1.2709f
  cbtot       1.8352f     1.0108f   941.9074a     1.0108f   941.9074a
  cgs       814.4408a   707.6537a   424.6555a   707.6537a   424.6555a
  cgd         2.6712f     1.1720f     1.3293f     1.1720f     1.3293f



 subckt                                                              
 element   0:mn25      0:mn26      0:mn35      0:mn36      0:mn07    
 model     0:nch.15    0:nch.15    0:nch.15    0:nch.15    0:nch.20  
 region        Linear      Linear      Linear      Linear      Linear
  id        -91.1146u   -91.1136u   -91.1146u   -91.1136u   -45.1546u
  ibs      -223.2391f  -400.0069f  -223.2391f  -400.0069f  -224.0102f
  ibd      -100.0067f  -223.2391f  -100.0067f  -223.2391f  -100.0035f
  vgs       776.7678m   600.0000m   776.7678m   600.0000m   775.9934m
  vds      -123.2322m  -176.7678m  -123.2322m  -176.7678m  -124.0066m
  vbs      -223.2322m  -400.0000m  -223.2322m  -400.0000m  -224.0066m
  vth       326.6534m   343.7528m   326.6534m   343.7528m   315.2278m
  vdsat     393.9833m   321.6159m   393.9833m   321.6159m   404.3505m
  vod       450.1144m   256.2472m   450.1144m   256.2472m   460.7656m
  beta        1.9657m     2.0290m     1.9657m     2.0290m   938.5665u
  gam eff   325.8750m   325.8750m   325.8750m   325.8750m   325.8466m
  gm        134.5567u   222.4593u   134.5567u   222.4593u    65.4883u
  gds       606.0089u   339.0154u   606.0089u   339.0154u   299.7088u
  gmb        23.1820u    32.6547u    23.1820u    32.6547u    11.0168u
  cdtot       2.0958f     1.8503f     2.0958f     1.8503f     1.0724f
  cgtot       1.8847f     1.7737f     1.8847f     1.7737f   956.9882a
  cstot       2.2078f     1.2709f     2.2078f     1.2709f     1.1366f
  cbtot       1.0108f   941.9074a     1.0108f   941.9074a   526.3428a
  cgs       707.6537a   424.6555a   707.6537a   424.6555a   360.5129a
  cgd         1.1720f     1.3293f     1.1720f     1.3293f   592.2536a



 subckt                                                              
 element   0:mn08      0:mn17      0:mn18      0:mn27      0:mn28    
 model     0:nch.20    0:nch.20    0:nch.20    0:nch.20    0:nch.20  
 region        Linear      Linear      Linear      Linear      Linear
  id        -45.1541u   -45.1546u   -45.1541u   -45.1546u   -45.1541u
  ibs      -400.0036f  -224.0102f  -400.0036f  -224.0102f  -400.0036f
  ibd      -224.0102f  -100.0035f  -224.0102f  -100.0035f  -224.0102f
  vgs       600.0000m   775.9934m   600.0000m   775.9934m   600.0000m
  vds      -175.9934m  -124.0066m  -175.9934m  -124.0066m  -175.9934m
  vbs      -400.0000m  -224.0066m  -400.0000m  -224.0066m  -400.0000m
  vth       332.0808m   315.2278m   332.0808m   315.2278m   332.0808m
  vdsat     330.5794m   404.3505m   330.5794m   404.3505m   330.5794m
  vod       267.9192m   460.7656m   267.9192m   460.7656m   267.9192m
  beta      968.7831u   938.5665u   968.7831u   938.5665u   968.7831u
  gam eff   325.8466m   325.8466m   325.8466m   325.8466m   325.8466m
  gm        106.9991u    65.4883u   106.9991u    65.4883u   106.9991u
  gds       171.8018u   299.7088u   171.8018u   299.7088u   171.8018u
  gmb        15.3015u    11.0168u    15.3015u    11.0168u    15.3015u
  cdtot     949.5038a     1.0724f   949.5038a     1.0724f   949.5038a
  cgtot     903.0420a   956.9882a   903.0420a   956.9882a   903.0420a
  cstot     672.9204a     1.1366f   672.9204a     1.1366f   672.9204a
  cbtot     491.8361a   526.3428a   491.8361a   526.3428a   491.8361a
  cgs       221.4446a   360.5129a   221.4446a   360.5129a   221.4446a
  cgd       670.4253a   592.2536a   670.4253a   592.2536a   670.4253a



 subckt                                                              
